
T1418 000:417 SEGGER J-Link V4.80g Log File (0001ms, 0263ms total)
T1418 000:417 DLL Compiled: Feb 13 2014 20:50:02 (0001ms, 0263ms total)
T1418 000:417 Logging started @ 2015-04-29 08:09 (0001ms, 0263ms total)
T1418 000:418 JLINK_SetWarnOutHandler(...) (0000ms, 0263ms total)
T1418 000:418 JLINK_OpenEx(...)
Firmware: J-Link ARM V8 compiled Jul 17 2014 12:31:18
Hardware: V8.00
S/N: 308622870
Feature(s): RDI,FlashDL,FlashBP,JFlash,GDBFULL  returns O.K. (0264ms, 0527ms total)
T1418 000:682 JLINK_SetErrorOutHandler(...) (0000ms, 0527ms total)
T1418 000:682 JLINK_ExecCommand("ProjectFile = "C:\Users\Licke\Documents\Muke无人机\BEYOND科技飞控源码 - uV4\USER\JLinkSettings.ini"", ...)  returns 0x00 (0000ms, 0527ms total)
T1418 000:690 JLINK_ExecCommand("Device = STM32F103VC", ...)Device "STM32F103VC" selected (256 KB flash, 48 KB RAM).  returns 0x00 (0004ms, 0531ms total)
T1418 000:694 JLINK_ExecCommand("DisableConnectionTimeout", ...)  returns 0x01 (0000ms, 0531ms total)
T1418 000:694 JLINK_GetHardwareVersion()  returns 0x13880 (0000ms, 0531ms total)
T1418 000:694 JLINK_GetDLLVersion()  returns 48007 (0000ms, 0531ms total)
T1418 000:694 JLINK_GetFirmwareString(...) (0000ms, 0531ms total)
T1418 000:701 JLINK_GetDLLVersion()  returns 48007 (0000ms, 0531ms total)
T1418 000:701 JLINK_GetCompileDateTime() (0000ms, 0531ms total)
T1418 000:703 JLINK_GetFirmwareString(...) (0000ms, 0531ms total)
T1418 000:705 JLINK_GetHardwareVersion()  returns 0x13880 (0000ms, 0531ms total)
T1418 000:712 JLINK_TIF_Select(JLINKARM_TIF_SWD)  returns 0x00 (0002ms, 0533ms total)
T1418 000:714 JLINK_SetSpeed(2000) (0000ms, 0533ms total)
T1418 000:714 JLINK_GetId() >0x108 TIF>Found SWD-DP with ID 0x1BA01477 >0x0D TIF> >0x28 TIF> >0x0D TIF> >0x28 TIF> >0x0D TIF> >0x21 TIF> >0x0D TIF> >0x28 TIF> >0x0D TIF> >0x28 TIF> >0x0D TIF> >0x28 TIF> >0x0D TIF> >0x21 TIF> >0x0D TIF> >0x21 TIF> >0x0D TIF> >0x28 TIF> >0x0D TIF> >0x21 TIF> >0x0D TIF> >0x21 TIF> >0x108 TIF>Found SWD-DP with ID 0x1BA01477 >0x0D TIF> >0x21 TIF> >0x0D TIF> >0x28 TIF> >0x0D TIF> >0x28 TIF> >0x0D TIF> >0x21 TIF> >0x0D TIF> >0x28 TIF> >0x0D TIF> >0x21 TIF> >0x0D TIF> >0x21 TIF>
 >0x0D TIF> >0x21 TIF> >0x0D TIF> >0x21 TIF> >0x0D TIF> >0x28 TIF> >0x0D TIF> >0x28 TIF> >0x0D TIF> >0x21 TIF> >0x0D TIF> >0x28 TIF> >0x0D TIF> >0x28 TIF> >0x0D TIF> >0x28 TIF> >0x0D TIF> >0x21 TIF> >0x0D TIF> >0x21 TIF> >0x0D TIF> >0x28 TIF> >0x0D TIF> >0x21 TIF> >0x0D TIF> >0x21 TIF>Found Cortex-M3 r1p1, Little endian. -- CPU_WriteMem(4 bytes @ 0xE0002000) -- CPU_ReadMem(4 bytes @ 0xE000EDF0) -- CPU_ReadMem(4 bytes @ 0xE0002000)FPUnit: 6 code (BP) slots and 2 literal slots
 -- CPU_ReadMem(4 bytes @ 0xE000EDFC) -- CPU_ReadMem(4 bytes @ 0xE0001000) -- CPU_WriteMem(4 bytes @ 0xE0001000) -- CPU_ReadMem(4 bytes @ 0xE00FF010)TPIU fitted. -- CPU_ReadMem(4 bytes @ 0xE00FF014)ETM fitted. -- CPU_ReadMem(4 bytes @ 0xE00FF018) >0x0D TIF> >0x21 TIF>  returns 0x1BA01477 (0056ms, 0589ms total)
T1418 000:770 JLINK_GetDeviceFamily()  returns 3 (0000ms, 0589ms total)
T1418 000:771 JLINK_ReadMem (0xE00FFFF0, 0x0010 Bytes, ...) -- CPU is running -- CPU_ReadMem(16 bytes @ 0xE00FFFF0) -- Data:  0D 00 00 00 10 00 00 00 05 00 00 00 B1 00 00 00  returns 0x00 (0001ms, 0590ms total)
T1418 000:772 JLINK_ReadMem (0xE00FFFD0, 0x0020 Bytes, ...) -- CPU is running -- CPU_ReadMem(32 bytes @ 0xE00FFFD0) -- Data:  00 00 00 00 00 00 00 00 00 00 00 00 00 00 00 00 ...  returns 0x00 (0001ms, 0591ms total)
T1418 000:773 JLINK_ReadMem (0xE00FF000, 0x0018 Bytes, ...) -- CPU is running -- CPU_ReadMem(24 bytes @ 0xE00FF000) -- Data:  03 F0 F0 FF 03 20 F0 FF 03 30 F0 FF 03 10 F0 FF ...  returns 0x00 (0001ms, 0592ms total)
T1418 000:774 JLINK_ReadMemU32(0xE000ED00, 0x0001 Items, ...) -- CPU is running -- CPU_ReadMem(4 bytes @ 0xE000ED00) -- Data:  31 C2 1F 41  returns 0x01 (0001ms, 0593ms total)
T1418 000:775 JLINK_SetResetType(JLINKARM_RESET_TYPE_NORMAL)  returns JLINKARM_RESET_TYPE_NORMAL (0000ms, 0593ms total)
T1418 000:775 JLINK_Reset() -- CPU is running -- CPU_WriteMem(4 bytes @ 0xE000EDF0) -- CPU is running -- CPU_WriteMem(4 bytes @ 0xE000EDFC) >0x35 TIF> -- CPU is running -- CPU_WriteMem(4 bytes @ 0xE000ED0C) -- CPU is running -- CPU_ReadMem(4 bytes @ 0xE000EDF0) -- CPU is running -- CPU_ReadMem(4 bytes @ 0xE000EDF0) -- CPU is running -- CPU_WriteMem(4 bytes @ 0xE000EDF0) -- CPU is running -- CPU_WriteMem(4 bytes @ 0xE000EDFC) -- CPU is running -- CPU_ReadMem(4 bytes @ 0xE000EDF0)
 -- CPU_WriteMem(4 bytes @ 0xE0002000) -- CPU_ReadMem(4 bytes @ 0xE000EDFC) -- CPU_ReadMem(4 bytes @ 0xE0001000) (0024ms, 0617ms total)
T1418 000:799 JLINK_Halt()  returns 0x00 (0000ms, 0617ms total)
T1418 000:799 JLINK_IsHalted()  returns TRUE (0000ms, 0617ms total)
T1418 000:799 JLINK_ReadMemU32(0xE000EDF0, 0x0001 Items, ...) -- CPU_ReadMem(4 bytes @ 0xE000EDF0) -- Data:  03 00 03 00  returns 0x01 (0000ms, 0617ms total)
T1418 000:799 JLINK_WriteU32(0xE000EDF0, 0xA05F0003) -- CPU_WriteMem(4 bytes @ 0xE000EDF0)  returns 0x00 (0001ms, 0618ms total)
T1418 000:800 JLINK_WriteU32(0xE000EDFC, 0x01000000) -- CPU_WriteMem(4 bytes @ 0xE000EDFC)  returns 0x00 (0001ms, 0619ms total)
T1418 000:808 JLINK_GetHWStatus(...)  returns 0x00 (0000ms, 0619ms total)
T1418 000:812 JLINK_GetNumBPUnits(Type = 0xFFFFFF00)  returns 0x06 (0000ms, 0619ms total)
T1418 000:812 JLINK_GetNumBPUnits(Type = 0xF0)  returns 0x2000 (0000ms, 0619ms total)
T1418 000:812 JLINK_GetNumWPUnits()  returns 0x04 (0000ms, 0619ms total)
T1418 000:816 JLINK_GetSpeed()  returns 0x7D0 (0000ms, 0619ms total)
T1418 000:819 JLINK_ReadMemU32(0xE000E004, 0x0001 Items, ...) -- CPU_ReadMem(4 bytes @ 0xE000E004) -- Data:  01 00 00 00  returns 0x01 (0001ms, 0620ms total)
T1418 000:820 JLINK_ReadMemU32(0xE000E004, 0x0001 Items, ...) -- CPU_ReadMem(4 bytes @ 0xE000E004) -- Data:  01 00 00 00  returns 0x01 (0001ms, 0621ms total)
T1418 000:821 JLINK_WriteMem(0xE0001000, 0x001C Bytes, ...) -- Data:  01 00 00 00 00 00 00 00 00 00 00 00 00 00 00 00 ... -- CPU_WriteMem(28 bytes @ 0xE0001000)  returns 0x1C (0001ms, 0622ms total)
T1418 000:822 JLINK_ReadMem (0xE0001000, 0x001C Bytes, ...) -- CPU_ReadMem(28 bytes @ 0xE0001000) -- Data:  01 00 00 40 00 00 00 00 00 00 00 00 00 00 00 00 ...  returns 0x00 (0001ms, 0623ms total)
T1418 000:823 JLINK_Halt()  returns 0x00 (0000ms, 0623ms total)
T1418 000:823 JLINK_IsHalted()  returns TRUE (0000ms, 0623ms total)
T1418 000:833 JLINK_WriteMem(0x20000000, 0x0164 Bytes, ...) -- Data:  00 BE 0A E0 0D 78 2D 06 68 40 08 24 40 00 00 D3 ... -- CPU_WriteMem(356 bytes @ 0x20000000)  returns 0x164 (0005ms, 0628ms total)
T1418 000:838 JLINK_WriteReg(R0, 0x08000000)  returns 0x00 (0000ms, 0628ms total)
T1418 000:838 JLINK_WriteReg(R1, 0x007A1200)  returns 0x00 (0000ms, 0628ms total)
T1418 000:838 JLINK_WriteReg(R2, 0x00000001)  returns 0x00 (0000ms, 0628ms total)
T1418 000:838 JLINK_WriteReg(R3, 0x00000000)  returns 0x00 (0000ms, 0628ms total)
T1418 000:838 JLINK_WriteReg(R4, 0x00000000)  returns 0x00 (0000ms, 0628ms total)
T1418 000:838 JLINK_WriteReg(R5, 0x00000000)  returns 0x00 (0000ms, 0628ms total)
T1418 000:838 JLINK_WriteReg(R6, 0x00000000)  returns 0x00 (0000ms, 0628ms total)
T1418 000:838 JLINK_WriteReg(R7, 0x00000000)  returns 0x00 (0000ms, 0628ms total)
T1418 000:838 JLINK_WriteReg(R8, 0x00000000)  returns 0x00 (0000ms, 0628ms total)
T1418 000:838 JLINK_WriteReg(R9, 0x20000160)  returns 0x00 (0000ms, 0628ms total)
T1418 000:838 JLINK_WriteReg(R10, 0x00000000)  returns 0x00 (0000ms, 0628ms total)
T1418 000:838 JLINK_WriteReg(R11, 0x00000000)  returns 0x00 (0000ms, 0628ms total)
T1418 000:838 JLINK_WriteReg(R12, 0x00000000)  returns 0x00 (0000ms, 0628ms total)
T1418 000:838 JLINK_WriteReg(R13 (SP), 0x20000800)  returns 0x00 (0000ms, 0628ms total)
T1418 000:838 JLINK_WriteReg(R14, 0x20000001)  returns 0x00 (0000ms, 0628ms total)
T1418 000:838 JLINK_WriteReg(R15 (PC), 0x20000038)  returns 0x00 (0000ms, 0628ms total)
T1418 000:838 JLINK_WriteReg(XPSR, 0x01000000)  returns 0x00 (0000ms, 0628ms total)
T1418 000:838 JLINK_WriteReg(MSP, 0x20000800)  returns 0x00 (0000ms, 0628ms total)
T1418 000:838 JLINK_WriteReg(PSP, 0x20000800)  returns 0x00 (0000ms, 0628ms total)
T1418 000:838 JLINK_WriteReg(CFBP, 0x00000000)  returns 0x00 (0000ms, 0628ms total)
T1418 000:838 JLINK_SetBPEx(Addr = 0x20000000, Type = 0xFFFFFFF2) -- CPU_ReadMem(2 bytes @ 0x20000000)  returns 0x00000001 (0001ms, 0629ms total)
T1418 000:839 JLINK_Go() -- CPU_WriteMem(2 bytes @ 0x20000000) -- CPU_WriteMem(4 bytes @ 0xE0002008) -- CPU_WriteMem(4 bytes @ 0xE000200C) -- CPU_WriteMem(4 bytes @ 0xE0002010) -- CPU_WriteMem(4 bytes @ 0xE0002014) -- CPU_WriteMem(4 bytes @ 0xE0002018) -- CPU_WriteMem(4 bytes @ 0xE000201C) -- CPU_WriteMem(4 bytes @ 0xE0001004) (0010ms, 0639ms total)
T1418 000:849 JLINK_IsHalted() -- CPU_ReadMem(2 bytes @ 0x20000000)  returns TRUE (0004ms, 0643ms total)
T1418 000:854 JLINK_ReadReg(R15 (PC))  returns 0x20000000 (0000ms, 0639ms total)
T1418 000:854 JLINK_ClrBPEx(BPHandle = 0x00000001)  returns 0x00 (0000ms, 0639ms total)
T1418 000:854 JLINK_ReadReg(R0)  returns 0x00000000 (0000ms, 0639ms total)
T1418 000:854 JLINK_WriteReg(R0, 0x08000000)  returns 0x00 (0000ms, 0639ms total)
T1418 000:854 JLINK_WriteReg(R1, 0x007A1200)  returns 0x00 (0000ms, 0639ms total)
T1418 000:854 JLINK_WriteReg(R2, 0x00000001)  returns 0x00 (0000ms, 0639ms total)
T1418 000:854 JLINK_WriteReg(R3, 0x00000000)  returns 0x00 (0000ms, 0639ms total)
T1418 000:854 JLINK_WriteReg(R4, 0x00000000)  returns 0x00 (0000ms, 0639ms total)
T1418 000:854 JLINK_WriteReg(R5, 0x00000000)  returns 0x00 (0000ms, 0639ms total)
T1418 000:854 JLINK_WriteReg(R6, 0x00000000)  returns 0x00 (0000ms, 0639ms total)
T1418 000:854 JLINK_WriteReg(R7, 0x00000000)  returns 0x00 (0000ms, 0639ms total)
T1418 000:854 JLINK_WriteReg(R8, 0x00000000)  returns 0x00 (0000ms, 0639ms total)
T1418 000:854 JLINK_WriteReg(R9, 0x20000160)  returns 0x00 (0000ms, 0639ms total)
T1418 000:854 JLINK_WriteReg(R10, 0x00000000)  returns 0x00 (0000ms, 0639ms total)
T1418 000:854 JLINK_WriteReg(R11, 0x00000000)  returns 0x00 (0000ms, 0639ms total)
T1418 000:854 JLINK_WriteReg(R12, 0x00000000)  returns 0x00 (0000ms, 0639ms total)
T1418 000:854 JLINK_WriteReg(R13 (SP), 0x20000800)  returns 0x00 (0000ms, 0639ms total)
T1418 000:854 JLINK_WriteReg(R14, 0x20000001)  returns 0x00 (0000ms, 0639ms total)
T1418 000:854 JLINK_WriteReg(R15 (PC), 0x2000007C)  returns 0x00 (0000ms, 0639ms total)
T1418 000:854 JLINK_WriteReg(XPSR, 0x01000000)  returns 0x00 (0000ms, 0639ms total)
T1418 000:854 JLINK_WriteReg(MSP, 0x20000800)  returns 0x00 (0000ms, 0639ms total)
T1418 000:854 JLINK_WriteReg(PSP, 0x20000800)  returns 0x00 (0000ms, 0639ms total)
T1418 000:854 JLINK_WriteReg(CFBP, 0x00000000)  returns 0x00 (0000ms, 0639ms total)
T1418 000:854 JLINK_SetBPEx(Addr = 0x20000000, Type = 0xFFFFFFF2)  returns 0x00000002 (0000ms, 0639ms total)
T1418 000:854 JLINK_Go() (0002ms, 0641ms total)
T1418 000:856 JLINK_IsHalted()  returns FALSE (0001ms, 0642ms total)
T1418 000:895 JLINK_IsHalted() -- CPU_ReadMem(2 bytes @ 0x20000000)  returns TRUE (0005ms, 0646ms total)
T1418 000:900 JLINK_ReadReg(R15 (PC))  returns 0x20000000 (0000ms, 0641ms total)
T1418 000:900 JLINK_ClrBPEx(BPHandle = 0x00000002)  returns 0x00 (0000ms, 0641ms total)
T1418 000:900 JLINK_ReadReg(R0)  returns 0x00000000 (0000ms, 0641ms total)
T1418 000:951 JLINK_WriteReg(R0, 0x00000001)  returns 0x00 (0000ms, 0641ms total)
T1418 000:951 JLINK_WriteReg(R1, 0x007A1200)  returns 0x00 (0000ms, 0641ms total)
T1418 000:951 JLINK_WriteReg(R2, 0x00000001)  returns 0x00 (0000ms, 0641ms total)
T1418 000:951 JLINK_WriteReg(R3, 0x00000000)  returns 0x00 (0000ms, 0641ms total)
T1418 000:951 JLINK_WriteReg(R4, 0x00000000)  returns 0x00 (0000ms, 0641ms total)
T1418 000:951 JLINK_WriteReg(R5, 0x00000000)  returns 0x00 (0000ms, 0641ms total)
T1418 000:951 JLINK_WriteReg(R6, 0x00000000)  returns 0x00 (0000ms, 0641ms total)
T1418 000:951 JLINK_WriteReg(R7, 0x00000000)  returns 0x00 (0000ms, 0641ms total)
T1418 000:951 JLINK_WriteReg(R8, 0x00000000)  returns 0x00 (0000ms, 0641ms total)
T1418 000:951 JLINK_WriteReg(R9, 0x20000160)  returns 0x00 (0000ms, 0641ms total)
T1418 000:951 JLINK_WriteReg(R10, 0x00000000)  returns 0x00 (0000ms, 0641ms total)
T1418 000:951 JLINK_WriteReg(R11, 0x00000000)  returns 0x00 (0000ms, 0641ms total)
T1418 000:951 JLINK_WriteReg(R12, 0x00000000)  returns 0x00 (0000ms, 0641ms total)
T1418 000:951 JLINK_WriteReg(R13 (SP), 0x20000800)  returns 0x00 (0001ms, 0642ms total)
T1418 000:952 JLINK_WriteReg(R14, 0x20000001)  returns 0x00 (0000ms, 0642ms total)
T1418 000:952 JLINK_WriteReg(R15 (PC), 0x2000006A)  returns 0x00 (0000ms, 0642ms total)
T1418 000:952 JLINK_WriteReg(XPSR, 0x01000000)  returns 0x00 (0000ms, 0642ms total)
T1418 000:952 JLINK_WriteReg(MSP, 0x20000800)  returns 0x00 (0000ms, 0642ms total)
T1418 000:952 JLINK_WriteReg(PSP, 0x20000800)  returns 0x00 (0000ms, 0642ms total)
T1418 000:952 JLINK_WriteReg(CFBP, 0x00000000)  returns 0x00 (0000ms, 0642ms total)
T1418 000:952 JLINK_SetBPEx(Addr = 0x20000000, Type = 0xFFFFFFF2)  returns 0x00000003 (0000ms, 0642ms total)
T1418 000:952 JLINK_Go() (0002ms, 0644ms total)
T1418 000:954 JLINK_IsHalted() -- CPU_ReadMem(2 bytes @ 0x20000000)  returns TRUE (0005ms, 0649ms total)
T1418 000:959 JLINK_ReadReg(R15 (PC))  returns 0x20000000 (0000ms, 0644ms total)
T1418 000:959 JLINK_ClrBPEx(BPHandle = 0x00000003)  returns 0x00 (0000ms, 0644ms total)
T1418 000:959 JLINK_ReadReg(R0)  returns 0x00000000 (0000ms, 0644ms total)
T1418 000:963 JLINK_WriteMem(0x20000000, 0x0164 Bytes, ...) -- Data:  00 BE 0A E0 0D 78 2D 06 68 40 08 24 40 00 00 D3 ... -- CPU_WriteMem(356 bytes @ 0x20000000)  returns 0x164 (0005ms, 0649ms total)
T1418 000:968 JLINK_WriteReg(R0, 0x08000000)  returns 0x00 (0000ms, 0649ms total)
T1418 000:968 JLINK_WriteReg(R1, 0x007A1200)  returns 0x00 (0000ms, 0649ms total)
T1418 000:968 JLINK_WriteReg(R2, 0x00000002)  returns 0x00 (0000ms, 0649ms total)
T1418 000:968 JLINK_WriteReg(R3, 0x00000000)  returns 0x00 (0000ms, 0649ms total)
T1418 000:968 JLINK_WriteReg(R4, 0x00000000)  returns 0x00 (0000ms, 0649ms total)
T1418 000:968 JLINK_WriteReg(R5, 0x00000000)  returns 0x00 (0000ms, 0649ms total)
T1418 000:968 JLINK_WriteReg(R6, 0x00000000)  returns 0x00 (0000ms, 0649ms total)
T1418 000:968 JLINK_WriteReg(R7, 0x00000000)  returns 0x00 (0000ms, 0649ms total)
T1418 000:968 JLINK_WriteReg(R8, 0x00000000)  returns 0x00 (0000ms, 0649ms total)
T1418 000:968 JLINK_WriteReg(R9, 0x20000160)  returns 0x00 (0000ms, 0649ms total)
T1418 000:968 JLINK_WriteReg(R10, 0x00000000)  returns 0x00 (0000ms, 0649ms total)
T1418 000:968 JLINK_WriteReg(R11, 0x00000000)  returns 0x00 (0000ms, 0649ms total)
T1418 000:968 JLINK_WriteReg(R12, 0x00000000)  returns 0x00 (0000ms, 0649ms total)
T1418 000:968 JLINK_WriteReg(R13 (SP), 0x20000800)  returns 0x00 (0000ms, 0649ms total)
T1418 000:968 JLINK_WriteReg(R14, 0x20000001)  returns 0x00 (0000ms, 0649ms total)
T1418 000:968 JLINK_WriteReg(R15 (PC), 0x20000038)  returns 0x00 (0000ms, 0649ms total)
T1418 000:968 JLINK_WriteReg(XPSR, 0x01000000)  returns 0x00 (0000ms, 0649ms total)
T1418 000:968 JLINK_WriteReg(MSP, 0x20000800)  returns 0x00 (0000ms, 0649ms total)
T1418 000:968 JLINK_WriteReg(PSP, 0x20000800)  returns 0x00 (0000ms, 0649ms total)
T1418 000:968 JLINK_WriteReg(CFBP, 0x00000000)  returns 0x00 (0000ms, 0649ms total)
T1418 000:968 JLINK_SetBPEx(Addr = 0x20000000, Type = 0xFFFFFFF2) -- CPU_ReadMem(2 bytes @ 0x20000000)  returns 0x00000004 (0001ms, 0650ms total)
T1418 000:969 JLINK_Go() -- CPU_WriteMem(2 bytes @ 0x20000000) (0003ms, 0653ms total)
T1418 000:972 JLINK_IsHalted() -- CPU_ReadMem(2 bytes @ 0x20000000)  returns TRUE (0005ms, 0658ms total)
T1418 000:977 JLINK_ReadReg(R15 (PC))  returns 0x20000000 (0000ms, 0653ms total)
T1418 000:977 JLINK_ClrBPEx(BPHandle = 0x00000004)  returns 0x00 (0000ms, 0653ms total)
T1418 000:977 JLINK_ReadReg(R0)  returns 0x00000000 (0000ms, 0653ms total)
T1418 000:977 JLINK_WriteMem(0x20000164, 0x0400 Bytes, ...) -- Data:  68 0C 00 20 21 03 00 08 E5 66 00 08 E7 66 00 08 ... -- CPU_WriteMem(1024 bytes @ 0x20000164)  returns 0x400 (0012ms, 0665ms total)
T1418 000:989 JLINK_WriteReg(R0, 0x08000000)  returns 0x00 (0000ms, 0665ms total)
T1418 000:989 JLINK_WriteReg(R1, 0x00000400)  returns 0x00 (0000ms, 0665ms total)
T1418 000:989 JLINK_WriteReg(R2, 0x20000164)  returns 0x00 (0000ms, 0665ms total)
T1418 000:989 JLINK_WriteReg(R3, 0x00000000)  returns 0x00 (0000ms, 0665ms total)
T1418 000:989 JLINK_WriteReg(R4, 0x00000000)  returns 0x00 (0000ms, 0665ms total)
T1418 000:989 JLINK_WriteReg(R5, 0x00000000)  returns 0x00 (0000ms, 0665ms total)
T1418 000:989 JLINK_WriteReg(R6, 0x00000000)  returns 0x00 (0000ms, 0665ms total)
T1418 000:989 JLINK_WriteReg(R7, 0x00000000)  returns 0x00 (0000ms, 0665ms total)
T1418 000:989 JLINK_WriteReg(R8, 0x00000000)  returns 0x00 (0000ms, 0665ms total)
T1418 000:989 JLINK_WriteReg(R9, 0x20000160)  returns 0x00 (0000ms, 0665ms total)
T1418 000:989 JLINK_WriteReg(R10, 0x00000000)  returns 0x00 (0000ms, 0665ms total)
T1418 000:989 JLINK_WriteReg(R11, 0x00000000)  returns 0x00 (0000ms, 0665ms total)
T1418 000:989 JLINK_WriteReg(R12, 0x00000000)  returns 0x00 (0000ms, 0665ms total)
T1418 000:989 JLINK_WriteReg(R13 (SP), 0x20000800)  returns 0x00 (0000ms, 0665ms total)
T1418 000:989 JLINK_WriteReg(R14, 0x20000001)  returns 0x00 (0000ms, 0665ms total)
T1418 000:989 JLINK_WriteReg(R15 (PC), 0x200000F4)  returns 0x00 (0000ms, 0665ms total)
T1418 000:989 JLINK_WriteReg(XPSR, 0x01000000)  returns 0x00 (0000ms, 0665ms total)
T1418 000:989 JLINK_WriteReg(MSP, 0x20000800)  returns 0x00 (0000ms, 0665ms total)
T1418 000:989 JLINK_WriteReg(PSP, 0x20000800)  returns 0x00 (0000ms, 0665ms total)
T1418 000:989 JLINK_WriteReg(CFBP, 0x00000000)  returns 0x00 (0000ms, 0665ms total)
T1418 000:989 JLINK_SetBPEx(Addr = 0x20000000, Type = 0xFFFFFFF2)  returns 0x00000005 (0000ms, 0665ms total)
T1418 000:989 JLINK_Go() (0003ms, 0668ms total)
T1418 000:992 JLINK_IsHalted()  returns FALSE (0000ms, 0668ms total)
T1418 001:000 JLINK_IsHalted()  returns FALSE (0000ms, 0668ms total)
T1418 001:002 JLINK_IsHalted()  returns FALSE (0001ms, 0669ms total)
T1418 001:005 JLINK_IsHalted()  returns FALSE (0000ms, 0668ms total)
T1418 001:007 JLINK_IsHalted()  returns FALSE (0000ms, 0668ms total)
T1418 001:009 JLINK_IsHalted()  returns FALSE (0000ms, 0668ms total)
T1418 001:011 JLINK_IsHalted()  returns FALSE (0000ms, 0668ms total)
T1418 001:013 JLINK_IsHalted()  returns FALSE (0000ms, 0668ms total)
T1418 001:020 JLINK_IsHalted()  returns FALSE (0000ms, 0668ms total)
T1418 001:022 JLINK_IsHalted()  returns FALSE (0000ms, 0668ms total)
T1418 001:024 JLINK_IsHalted() -- CPU_ReadMem(2 bytes @ 0x20000000)  returns TRUE (0004ms, 0672ms total)
T1418 001:028 JLINK_ReadReg(R15 (PC))  returns 0x20000000 (0000ms, 0668ms total)
T1418 001:028 JLINK_ClrBPEx(BPHandle = 0x00000005)  returns 0x00 (0000ms, 0668ms total)
T1418 001:028 JLINK_ReadReg(R0)  returns 0x00000000 (0000ms, 0668ms total)
T1418 001:029 JLINK_WriteMem(0x20000164, 0x0400 Bytes, ...) -- Data:  21 F0 04 01 4F F0 E0 22 11 61 70 47 00 00 FA 05 ... -- CPU_WriteMem(1024 bytes @ 0x20000164)  returns 0x400 (0011ms, 0679ms total)
T1418 001:040 JLINK_WriteReg(R0, 0x08000400)  returns 0x00 (0000ms, 0679ms total)
T1418 001:040 JLINK_WriteReg(R1, 0x00000400)  returns 0x00 (0000ms, 0679ms total)
T1418 001:040 JLINK_WriteReg(R2, 0x20000164)  returns 0x00 (0000ms, 0679ms total)
T1418 001:040 JLINK_WriteReg(R3, 0x00000000)  returns 0x00 (0000ms, 0679ms total)
T1418 001:040 JLINK_WriteReg(R4, 0x00000000)  returns 0x00 (0000ms, 0679ms total)
T1418 001:040 JLINK_WriteReg(R5, 0x00000000)  returns 0x00 (0000ms, 0679ms total)
T1418 001:041 JLINK_WriteReg(R6, 0x00000000)  returns 0x00 (0000ms, 0680ms total)
T1418 001:041 JLINK_WriteReg(R7, 0x00000000)  returns 0x00 (0000ms, 0680ms total)
T1418 001:041 JLINK_WriteReg(R8, 0x00000000)  returns 0x00 (0000ms, 0680ms total)
T1418 001:041 JLINK_WriteReg(R9, 0x20000160)  returns 0x00 (0000ms, 0680ms total)
T1418 001:041 JLINK_WriteReg(R10, 0x00000000)  returns 0x00 (0000ms, 0680ms total)
T1418 001:041 JLINK_WriteReg(R11, 0x00000000)  returns 0x00 (0000ms, 0680ms total)
T1418 001:041 JLINK_WriteReg(R12, 0x00000000)  returns 0x00 (0000ms, 0680ms total)
T1418 001:041 JLINK_WriteReg(R13 (SP), 0x20000800)  returns 0x00 (0000ms, 0680ms total)
T1418 001:041 JLINK_WriteReg(R14, 0x20000001)  returns 0x00 (0000ms, 0680ms total)
T1418 001:041 JLINK_WriteReg(R15 (PC), 0x200000F4)  returns 0x00 (0000ms, 0680ms total)
T1418 001:041 JLINK_WriteReg(XPSR, 0x01000000)  returns 0x00 (0000ms, 0680ms total)
T1418 001:041 JLINK_WriteReg(MSP, 0x20000800)  returns 0x00 (0000ms, 0680ms total)
T1418 001:041 JLINK_WriteReg(PSP, 0x20000800)  returns 0x00 (0000ms, 0680ms total)
T1418 001:041 JLINK_WriteReg(CFBP, 0x00000000)  returns 0x00 (0000ms, 0680ms total)
T1418 001:041 JLINK_SetBPEx(Addr = 0x20000000, Type = 0xFFFFFFF2)  returns 0x00000006 (0000ms, 0680ms total)
T1418 001:041 JLINK_Go() (0002ms, 0682ms total)
T1418 001:043 JLINK_IsHalted()  returns FALSE (0001ms, 0683ms total)
T1418 001:046 JLINK_IsHalted()  returns FALSE (0000ms, 0682ms total)
T1418 001:048 JLINK_IsHalted()  returns FALSE (0000ms, 0682ms total)
T1418 001:050 JLINK_IsHalted()  returns FALSE (0000ms, 0682ms total)
T1418 001:052 JLINK_IsHalted()  returns FALSE (0001ms, 0683ms total)
T1418 001:055 JLINK_IsHalted()  returns FALSE (0001ms, 0683ms total)
T1418 001:061 JLINK_IsHalted()  returns FALSE (0000ms, 0682ms total)
T1418 001:063 JLINK_IsHalted()  returns FALSE (0000ms, 0682ms total)
T1418 001:065 JLINK_IsHalted()  returns FALSE (0000ms, 0682ms total)
T1418 001:067 JLINK_IsHalted()  returns FALSE (0000ms, 0682ms total)
T1418 001:069 JLINK_IsHalted()  returns FALSE (0000ms, 0682ms total)
T1418 001:071 JLINK_IsHalted()  returns FALSE (0000ms, 0682ms total)
T1418 001:073 JLINK_IsHalted()  returns FALSE (0000ms, 0682ms total)
T1418 001:075 JLINK_IsHalted() -- CPU_ReadMem(2 bytes @ 0x20000000)  returns TRUE (0004ms, 0686ms total)
T1418 001:079 JLINK_ReadReg(R15 (PC))  returns 0x20000000 (0000ms, 0682ms total)
T1418 001:079 JLINK_ClrBPEx(BPHandle = 0x00000006)  returns 0x00 (0000ms, 0682ms total)
T1418 001:079 JLINK_ReadReg(R0)  returns 0x00000000 (0000ms, 0682ms total)
T1418 001:080 JLINK_WriteMem(0x20000164, 0x0400 Bytes, ...) -- Data:  09 68 21 F4 00 01 02 4A 08 32 11 60 70 47 00 00 ... -- CPU_WriteMem(1024 bytes @ 0x20000164)  returns 0x400 (0011ms, 0693ms total)
T1418 001:091 JLINK_WriteReg(R0, 0x08000800)  returns 0x00 (0000ms, 0693ms total)
T1418 001:091 JLINK_WriteReg(R1, 0x00000400)  returns 0x00 (0000ms, 0693ms total)
T1418 001:091 JLINK_WriteReg(R2, 0x20000164)  returns 0x00 (0000ms, 0693ms total)
T1418 001:091 JLINK_WriteReg(R3, 0x00000000)  returns 0x00 (0000ms, 0693ms total)
T1418 001:091 JLINK_WriteReg(R4, 0x00000000)  returns 0x00 (0000ms, 0693ms total)
T1418 001:091 JLINK_WriteReg(R5, 0x00000000)  returns 0x00 (0001ms, 0694ms total)
T1418 001:092 JLINK_WriteReg(R6, 0x00000000)  returns 0x00 (0000ms, 0694ms total)
T1418 001:092 JLINK_WriteReg(R7, 0x00000000)  returns 0x00 (0000ms, 0694ms total)
T1418 001:092 JLINK_WriteReg(R8, 0x00000000)  returns 0x00 (0000ms, 0694ms total)
T1418 001:092 JLINK_WriteReg(R9, 0x20000160)  returns 0x00 (0000ms, 0694ms total)
T1418 001:092 JLINK_WriteReg(R10, 0x00000000)  returns 0x00 (0000ms, 0694ms total)
T1418 001:092 JLINK_WriteReg(R11, 0x00000000)  returns 0x00 (0000ms, 0694ms total)
T1418 001:092 JLINK_WriteReg(R12, 0x00000000)  returns 0x00 (0000ms, 0694ms total)
T1418 001:092 JLINK_WriteReg(R13 (SP), 0x20000800)  returns 0x00 (0000ms, 0694ms total)
T1418 001:092 JLINK_WriteReg(R14, 0x20000001)  returns 0x00 (0000ms, 0694ms total)
T1418 001:092 JLINK_WriteReg(R15 (PC), 0x200000F4)  returns 0x00 (0000ms, 0694ms total)
T1418 001:092 JLINK_WriteReg(XPSR, 0x01000000)  returns 0x00 (0000ms, 0694ms total)
T1418 001:092 JLINK_WriteReg(MSP, 0x20000800)  returns 0x00 (0000ms, 0694ms total)
T1418 001:092 JLINK_WriteReg(PSP, 0x20000800)  returns 0x00 (0000ms, 0694ms total)
T1418 001:092 JLINK_WriteReg(CFBP, 0x00000000)  returns 0x00 (0000ms, 0694ms total)
T1418 001:092 JLINK_SetBPEx(Addr = 0x20000000, Type = 0xFFFFFFF2)  returns 0x00000007 (0000ms, 0694ms total)
T1418 001:092 JLINK_Go() (0002ms, 0696ms total)
T1418 001:094 JLINK_IsHalted()  returns FALSE (0001ms, 0697ms total)
T1418 001:097 JLINK_IsHalted()  returns FALSE (0000ms, 0696ms total)
T1418 001:099 JLINK_IsHalted()  returns FALSE (0000ms, 0696ms total)
T1418 001:101 JLINK_IsHalted()  returns FALSE (0000ms, 0696ms total)
T1418 001:103 JLINK_IsHalted()  returns FALSE (0000ms, 0696ms total)
T1418 001:105 JLINK_IsHalted()  returns FALSE (0000ms, 0696ms total)
T1418 001:107 JLINK_IsHalted()  returns FALSE (0000ms, 0696ms total)
T1418 001:109 JLINK_IsHalted()  returns FALSE (0000ms, 0696ms total)
T1418 001:111 JLINK_IsHalted()  returns FALSE (0000ms, 0696ms total)
T1418 001:113 JLINK_IsHalted()  returns FALSE (0000ms, 0696ms total)
T1418 001:115 JLINK_IsHalted()  returns FALSE (0000ms, 0696ms total)
T1418 001:117 JLINK_IsHalted()  returns FALSE (0000ms, 0696ms total)
T1418 001:119 JLINK_IsHalted()  returns FALSE (0000ms, 0696ms total)
T1418 001:123 JLINK_IsHalted()  returns FALSE (0000ms, 0696ms total)
T1418 001:125 JLINK_IsHalted() -- CPU_ReadMem(2 bytes @ 0x20000000)  returns TRUE (0004ms, 0700ms total)
T1418 001:129 JLINK_ReadReg(R15 (PC))  returns 0x20000000 (0000ms, 0696ms total)
T1418 001:129 JLINK_ClrBPEx(BPHandle = 0x00000007)  returns 0x00 (0000ms, 0696ms total)
T1418 001:129 JLINK_ReadReg(R0)  returns 0x00000000 (0000ms, 0696ms total)
T1418 001:130 JLINK_WriteMem(0x20000164, 0x0400 Bytes, ...) -- Data:  04 46 AF 48 00 69 41 F6 FB 71 08 40 AC 49 08 61 ... -- CPU_WriteMem(1024 bytes @ 0x20000164)  returns 0x400 (0011ms, 0707ms total)
T1418 001:141 JLINK_WriteReg(R0, 0x08000C00)  returns 0x00 (0000ms, 0707ms total)
T1418 001:141 JLINK_WriteReg(R1, 0x00000400)  returns 0x00 (0000ms, 0707ms total)
T1418 001:141 JLINK_WriteReg(R2, 0x20000164)  returns 0x00 (0000ms, 0707ms total)
T1418 001:141 JLINK_WriteReg(R3, 0x00000000)  returns 0x00 (0000ms, 0707ms total)
T1418 001:141 JLINK_WriteReg(R4, 0x00000000)  returns 0x00 (0000ms, 0707ms total)
T1418 001:141 JLINK_WriteReg(R5, 0x00000000)  returns 0x00 (0000ms, 0707ms total)
T1418 001:141 JLINK_WriteReg(R6, 0x00000000)  returns 0x00 (0000ms, 0707ms total)
T1418 001:141 JLINK_WriteReg(R7, 0x00000000)  returns 0x00 (0000ms, 0707ms total)
T1418 001:141 JLINK_WriteReg(R8, 0x00000000)  returns 0x00 (0000ms, 0707ms total)
T1418 001:142 JLINK_WriteReg(R9, 0x20000160)  returns 0x00 (0000ms, 0708ms total)
T1418 001:142 JLINK_WriteReg(R10, 0x00000000)  returns 0x00 (0000ms, 0708ms total)
T1418 001:142 JLINK_WriteReg(R11, 0x00000000)  returns 0x00 (0000ms, 0708ms total)
T1418 001:142 JLINK_WriteReg(R12, 0x00000000)  returns 0x00 (0000ms, 0708ms total)
T1418 001:142 JLINK_WriteReg(R13 (SP), 0x20000800)  returns 0x00 (0000ms, 0708ms total)
T1418 001:142 JLINK_WriteReg(R14, 0x20000001)  returns 0x00 (0000ms, 0708ms total)
T1418 001:142 JLINK_WriteReg(R15 (PC), 0x200000F4)  returns 0x00 (0000ms, 0708ms total)
T1418 001:142 JLINK_WriteReg(XPSR, 0x01000000)  returns 0x00 (0000ms, 0708ms total)
T1418 001:142 JLINK_WriteReg(MSP, 0x20000800)  returns 0x00 (0000ms, 0708ms total)
T1418 001:142 JLINK_WriteReg(PSP, 0x20000800)  returns 0x00 (0000ms, 0708ms total)
T1418 001:142 JLINK_WriteReg(CFBP, 0x00000000)  returns 0x00 (0000ms, 0708ms total)
T1418 001:142 JLINK_SetBPEx(Addr = 0x20000000, Type = 0xFFFFFFF2)  returns 0x00000008 (0000ms, 0708ms total)
T1418 001:142 JLINK_Go() (0002ms, 0710ms total)
T1418 001:144 JLINK_IsHalted()  returns FALSE (0001ms, 0711ms total)
T1418 001:147 JLINK_IsHalted()  returns FALSE (0000ms, 0710ms total)
T1418 001:149 JLINK_IsHalted()  returns FALSE (0000ms, 0710ms total)
T1418 001:151 JLINK_IsHalted()  returns FALSE (0000ms, 0710ms total)
T1418 001:153 JLINK_IsHalted()  returns FALSE (0000ms, 0710ms total)
T1418 001:155 JLINK_IsHalted()  returns FALSE (0000ms, 0710ms total)
T1418 001:157 JLINK_IsHalted()  returns FALSE (0000ms, 0710ms total)
T1418 001:159 JLINK_IsHalted()  returns FALSE (0000ms, 0710ms total)
T1418 001:161 JLINK_IsHalted()  returns FALSE (0000ms, 0710ms total)
T1418 001:163 JLINK_IsHalted()  returns FALSE (0000ms, 0710ms total)
T1418 001:165 JLINK_IsHalted()  returns FALSE (0000ms, 0710ms total)
T1418 001:167 JLINK_IsHalted()  returns FALSE (0000ms, 0710ms total)
T1418 001:169 JLINK_IsHalted()  returns FALSE (0000ms, 0710ms total)
T1418 001:176 JLINK_IsHalted() -- CPU_ReadMem(2 bytes @ 0x20000000)  returns TRUE (0005ms, 0715ms total)
T1418 001:181 JLINK_ReadReg(R15 (PC))  returns 0x20000000 (0000ms, 0710ms total)
T1418 001:181 JLINK_ClrBPEx(BPHandle = 0x00000008)  returns 0x00 (0000ms, 0710ms total)
T1418 001:181 JLINK_ReadReg(R0)  returns 0x00000000 (0000ms, 0710ms total)
T1418 001:181 JLINK_WriteMem(0x20000164, 0x0400 Bytes, ...) -- Data:  12 69 82 43 19 4B 1A 61 70 47 01 46 00 20 01 29 ... -- CPU_WriteMem(1024 bytes @ 0x20000164)  returns 0x400 (0012ms, 0722ms total)
T1418 001:193 JLINK_WriteReg(R0, 0x08001000)  returns 0x00 (0000ms, 0722ms total)
T1418 001:193 JLINK_WriteReg(R1, 0x00000400)  returns 0x00 (0000ms, 0722ms total)
T1418 001:193 JLINK_WriteReg(R2, 0x20000164)  returns 0x00 (0000ms, 0722ms total)
T1418 001:193 JLINK_WriteReg(R3, 0x00000000)  returns 0x00 (0000ms, 0722ms total)
T1418 001:193 JLINK_WriteReg(R4, 0x00000000)  returns 0x00 (0000ms, 0722ms total)
T1418 001:193 JLINK_WriteReg(R5, 0x00000000)  returns 0x00 (0000ms, 0722ms total)
T1418 001:193 JLINK_WriteReg(R6, 0x00000000)  returns 0x00 (0000ms, 0722ms total)
T1418 001:193 JLINK_WriteReg(R7, 0x00000000)  returns 0x00 (0000ms, 0722ms total)
T1418 001:193 JLINK_WriteReg(R8, 0x00000000)  returns 0x00 (0000ms, 0722ms total)
T1418 001:193 JLINK_WriteReg(R9, 0x20000160)  returns 0x00 (0000ms, 0722ms total)
T1418 001:193 JLINK_WriteReg(R10, 0x00000000)  returns 0x00 (0000ms, 0722ms total)
T1418 001:193 JLINK_WriteReg(R11, 0x00000000)  returns 0x00 (0000ms, 0722ms total)
T1418 001:193 JLINK_WriteReg(R12, 0x00000000)  returns 0x00 (0000ms, 0722ms total)
T1418 001:193 JLINK_WriteReg(R13 (SP), 0x20000800)  returns 0x00 (0000ms, 0722ms total)
T1418 001:193 JLINK_WriteReg(R14, 0x20000001)  returns 0x00 (0000ms, 0722ms total)
T1418 001:193 JLINK_WriteReg(R15 (PC), 0x200000F4)  returns 0x00 (0000ms, 0722ms total)
T1418 001:193 JLINK_WriteReg(XPSR, 0x01000000)  returns 0x00 (0000ms, 0722ms total)
T1418 001:193 JLINK_WriteReg(MSP, 0x20000800)  returns 0x00 (0000ms, 0722ms total)
T1418 001:193 JLINK_WriteReg(PSP, 0x20000800)  returns 0x00 (0000ms, 0722ms total)
T1418 001:193 JLINK_WriteReg(CFBP, 0x00000000)  returns 0x00 (0000ms, 0722ms total)
T1418 001:193 JLINK_SetBPEx(Addr = 0x20000000, Type = 0xFFFFFFF2)  returns 0x00000009 (0000ms, 0722ms total)
T1418 001:193 JLINK_Go() (0003ms, 0725ms total)
T1418 001:196 JLINK_IsHalted()  returns FALSE (0000ms, 0725ms total)
T1418 001:198 JLINK_IsHalted()  returns FALSE (0000ms, 0725ms total)
T1418 001:201 JLINK_IsHalted()  returns FALSE (0000ms, 0725ms total)
T1418 001:203 JLINK_IsHalted()  returns FALSE (0000ms, 0725ms total)
T1418 001:205 JLINK_IsHalted()  returns FALSE (0000ms, 0725ms total)
T1418 001:207 JLINK_IsHalted()  returns FALSE (0000ms, 0725ms total)
T1418 001:209 JLINK_IsHalted()  returns FALSE (0000ms, 0725ms total)
T1418 001:211 JLINK_IsHalted()  returns FALSE (0000ms, 0725ms total)
T1418 001:213 JLINK_IsHalted()  returns FALSE (0000ms, 0725ms total)
T1418 001:215 JLINK_IsHalted()  returns FALSE (0000ms, 0725ms total)
T1418 001:217 JLINK_IsHalted()  returns FALSE (0000ms, 0725ms total)
T1418 001:219 JLINK_IsHalted()  returns FALSE (0000ms, 0725ms total)
T1418 001:220 JLINK_IsHalted()  returns FALSE (0000ms, 0725ms total)
T1418 001:222 JLINK_IsHalted()  returns FALSE (0000ms, 0725ms total)
T1418 001:224 JLINK_IsHalted()  returns FALSE (0000ms, 0725ms total)
T1418 001:226 JLINK_IsHalted()  returns FALSE (0000ms, 0725ms total)
T1418 001:228 JLINK_IsHalted() -- CPU_ReadMem(2 bytes @ 0x20000000)  returns TRUE (0004ms, 0729ms total)
T1418 001:232 JLINK_ReadReg(R15 (PC))  returns 0x20000000 (0000ms, 0725ms total)
T1418 001:232 JLINK_ClrBPEx(BPHandle = 0x00000009)  returns 0x00 (0001ms, 0726ms total)
T1418 001:233 JLINK_ReadReg(R0)  returns 0x00000000 (0000ms, 0726ms total)
T1418 001:233 JLINK_WriteMem(0x20000164, 0x0400 Bytes, ...) -- Data:  08 46 00 68 20 F4 80 20 08 60 08 46 40 68 20 F4 ... -- CPU_WriteMem(1024 bytes @ 0x20000164)  returns 0x400 (0013ms, 0739ms total)
T1418 001:246 JLINK_WriteReg(R0, 0x08001400)  returns 0x00 (0000ms, 0739ms total)
T1418 001:246 JLINK_WriteReg(R1, 0x00000400)  returns 0x00 (0000ms, 0739ms total)
T1418 001:246 JLINK_WriteReg(R2, 0x20000164)  returns 0x00 (0000ms, 0739ms total)
T1418 001:246 JLINK_WriteReg(R3, 0x00000000)  returns 0x00 (0000ms, 0739ms total)
T1418 001:246 JLINK_WriteReg(R4, 0x00000000)  returns 0x00 (0000ms, 0739ms total)
T1418 001:246 JLINK_WriteReg(R5, 0x00000000)  returns 0x00 (0000ms, 0739ms total)
T1418 001:246 JLINK_WriteReg(R6, 0x00000000)  returns 0x00 (0000ms, 0739ms total)
T1418 001:246 JLINK_WriteReg(R7, 0x00000000)  returns 0x00 (0000ms, 0739ms total)
T1418 001:246 JLINK_WriteReg(R8, 0x00000000)  returns 0x00 (0000ms, 0739ms total)
T1418 001:246 JLINK_WriteReg(R9, 0x20000160)  returns 0x00 (0000ms, 0739ms total)
T1418 001:246 JLINK_WriteReg(R10, 0x00000000)  returns 0x00 (0000ms, 0739ms total)
T1418 001:246 JLINK_WriteReg(R11, 0x00000000)  returns 0x00 (0000ms, 0739ms total)
T1418 001:246 JLINK_WriteReg(R12, 0x00000000)  returns 0x00 (0000ms, 0739ms total)
T1418 001:246 JLINK_WriteReg(R13 (SP), 0x20000800)  returns 0x00 (0000ms, 0739ms total)
T1418 001:246 JLINK_WriteReg(R14, 0x20000001)  returns 0x00 (0000ms, 0739ms total)
T1418 001:246 JLINK_WriteReg(R15 (PC), 0x200000F4)  returns 0x00 (0000ms, 0739ms total)
T1418 001:246 JLINK_WriteReg(XPSR, 0x01000000)  returns 0x00 (0000ms, 0739ms total)
T1418 001:246 JLINK_WriteReg(MSP, 0x20000800)  returns 0x00 (0000ms, 0739ms total)
T1418 001:246 JLINK_WriteReg(PSP, 0x20000800)  returns 0x00 (0000ms, 0739ms total)
T1418 001:246 JLINK_WriteReg(CFBP, 0x00000000)  returns 0x00 (0000ms, 0739ms total)
T1418 001:246 JLINK_SetBPEx(Addr = 0x20000000, Type = 0xFFFFFFF2)  returns 0x0000000A (0000ms, 0739ms total)
T1418 001:246 JLINK_Go() (0002ms, 0741ms total)
T1418 001:248 JLINK_IsHalted()  returns FALSE (0001ms, 0742ms total)
T1418 001:256 JLINK_IsHalted()  returns FALSE (0000ms, 0741ms total)
T1418 001:258 JLINK_IsHalted()  returns FALSE (0000ms, 0741ms total)
T1418 001:260 JLINK_IsHalted()  returns FALSE (0000ms, 0741ms total)
T1418 001:262 JLINK_IsHalted()  returns FALSE (0000ms, 0741ms total)
T1418 001:264 JLINK_IsHalted()  returns FALSE (0000ms, 0741ms total)
T1418 001:266 JLINK_IsHalted()  returns FALSE (0000ms, 0741ms total)
T1418 001:268 JLINK_IsHalted()  returns FALSE (0000ms, 0741ms total)
T1418 001:270 JLINK_IsHalted()  returns FALSE (0000ms, 0741ms total)
T1418 001:272 JLINK_IsHalted()  returns FALSE (0000ms, 0741ms total)
T1418 001:274 JLINK_IsHalted()  returns FALSE (0000ms, 0741ms total)
T1418 001:276 JLINK_IsHalted()  returns FALSE (0000ms, 0741ms total)
T1418 001:281 JLINK_IsHalted() -- CPU_ReadMem(2 bytes @ 0x20000000)  returns TRUE (0005ms, 0746ms total)
T1418 001:286 JLINK_ReadReg(R15 (PC))  returns 0x20000000 (0000ms, 0741ms total)
T1418 001:286 JLINK_ClrBPEx(BPHandle = 0x0000000A)  returns 0x00 (0000ms, 0741ms total)
T1418 001:286 JLINK_ReadReg(R0)  returns 0x00000000 (0000ms, 0741ms total)
T1418 001:286 JLINK_WriteMem(0x20000164, 0x0400 Bytes, ...) -- Data:  83 83 0B 8A 03 82 10 BD 2D E9 F0 4F 85 B0 05 46 ... -- CPU_WriteMem(1024 bytes @ 0x20000164)  returns 0x400 (0012ms, 0753ms total)
T1418 001:298 JLINK_WriteReg(R0, 0x08001800)  returns 0x00 (0000ms, 0753ms total)
T1418 001:298 JLINK_WriteReg(R1, 0x00000400)  returns 0x00 (0000ms, 0753ms total)
T1418 001:298 JLINK_WriteReg(R2, 0x20000164)  returns 0x00 (0000ms, 0753ms total)
T1418 001:298 JLINK_WriteReg(R3, 0x00000000)  returns 0x00 (0000ms, 0753ms total)
T1418 001:298 JLINK_WriteReg(R4, 0x00000000)  returns 0x00 (0000ms, 0753ms total)
T1418 001:298 JLINK_WriteReg(R5, 0x00000000)  returns 0x00 (0000ms, 0753ms total)
T1418 001:298 JLINK_WriteReg(R6, 0x00000000)  returns 0x00 (0000ms, 0753ms total)
T1418 001:298 JLINK_WriteReg(R7, 0x00000000)  returns 0x00 (0000ms, 0753ms total)
T1418 001:298 JLINK_WriteReg(R8, 0x00000000)  returns 0x00 (0000ms, 0753ms total)
T1418 001:298 JLINK_WriteReg(R9, 0x20000160)  returns 0x00 (0000ms, 0753ms total)
T1418 001:298 JLINK_WriteReg(R10, 0x00000000)  returns 0x00 (0000ms, 0753ms total)
T1418 001:298 JLINK_WriteReg(R11, 0x00000000)  returns 0x00 (0000ms, 0753ms total)
T1418 001:298 JLINK_WriteReg(R12, 0x00000000)  returns 0x00 (0000ms, 0753ms total)
T1418 001:298 JLINK_WriteReg(R13 (SP), 0x20000800)  returns 0x00 (0000ms, 0753ms total)
T1418 001:298 JLINK_WriteReg(R14, 0x20000001)  returns 0x00 (0000ms, 0753ms total)
T1418 001:298 JLINK_WriteReg(R15 (PC), 0x200000F4)  returns 0x00 (0000ms, 0753ms total)
T1418 001:298 JLINK_WriteReg(XPSR, 0x01000000)  returns 0x00 (0000ms, 0753ms total)
T1418 001:298 JLINK_WriteReg(MSP, 0x20000800)  returns 0x00 (0000ms, 0753ms total)
T1418 001:298 JLINK_WriteReg(PSP, 0x20000800)  returns 0x00 (0000ms, 0753ms total)
T1418 001:298 JLINK_WriteReg(CFBP, 0x00000000)  returns 0x00 (0000ms, 0753ms total)
T1418 001:298 JLINK_SetBPEx(Addr = 0x20000000, Type = 0xFFFFFFF2)  returns 0x0000000B (0000ms, 0753ms total)
T1418 001:298 JLINK_Go() (0003ms, 0756ms total)
T1418 001:301 JLINK_IsHalted()  returns FALSE (0000ms, 0756ms total)
T1418 001:303 JLINK_IsHalted()  returns FALSE (0000ms, 0756ms total)
T1418 001:305 JLINK_IsHalted()  returns FALSE (0000ms, 0756ms total)
T1418 001:307 JLINK_IsHalted()  returns FALSE (0000ms, 0756ms total)
T1418 001:309 JLINK_IsHalted()  returns FALSE (0000ms, 0756ms total)
T1418 001:311 JLINK_IsHalted()  returns FALSE (0000ms, 0756ms total)
T1418 001:313 JLINK_IsHalted()  returns FALSE (0000ms, 0756ms total)
T1418 001:315 JLINK_IsHalted()  returns FALSE (0000ms, 0756ms total)
T1418 001:317 JLINK_IsHalted()  returns FALSE (0000ms, 0756ms total)
T1418 001:319 JLINK_IsHalted()  returns FALSE (0000ms, 0756ms total)
T1418 001:321 JLINK_IsHalted()  returns FALSE (0000ms, 0756ms total)
T1418 001:323 JLINK_IsHalted()  returns FALSE (0000ms, 0756ms total)
T1418 001:325 JLINK_IsHalted()  returns FALSE (0000ms, 0756ms total)
T1418 001:327 JLINK_IsHalted()  returns FALSE (0000ms, 0756ms total)
T1418 001:329 JLINK_IsHalted()  returns FALSE (0000ms, 0756ms total)
T1418 001:331 JLINK_IsHalted()  returns FALSE (0000ms, 0756ms total)
T1418 001:333 JLINK_IsHalted() -- CPU_ReadMem(2 bytes @ 0x20000000)  returns TRUE (0004ms, 0760ms total)
T1418 001:337 JLINK_ReadReg(R15 (PC))  returns 0x20000000 (0000ms, 0756ms total)
T1418 001:337 JLINK_ClrBPEx(BPHandle = 0x0000000B)  returns 0x00 (0001ms, 0757ms total)
T1418 001:338 JLINK_ReadReg(R0)  returns 0x00000000 (0000ms, 0757ms total)
T1418 001:338 JLINK_WriteMem(0x20000164, 0x0400 Bytes, ...) -- Data:  B0 48 84 42 09 D1 01 21 48 04 FF F7 6B FD 00 21 ... -- CPU_WriteMem(1024 bytes @ 0x20000164)  returns 0x400 (0011ms, 0768ms total)
T1418 001:349 JLINK_WriteReg(R0, 0x08001C00)  returns 0x00 (0000ms, 0768ms total)
T1418 001:350 JLINK_WriteReg(R1, 0x00000400)  returns 0x00 (0000ms, 0768ms total)
T1418 001:350 JLINK_WriteReg(R2, 0x20000164)  returns 0x00 (0000ms, 0768ms total)
T1418 001:350 JLINK_WriteReg(R3, 0x00000000)  returns 0x00 (0000ms, 0768ms total)
T1418 001:350 JLINK_WriteReg(R4, 0x00000000)  returns 0x00 (0000ms, 0768ms total)
T1418 001:350 JLINK_WriteReg(R5, 0x00000000)  returns 0x00 (0000ms, 0768ms total)
T1418 001:350 JLINK_WriteReg(R6, 0x00000000)  returns 0x00 (0000ms, 0768ms total)
T1418 001:350 JLINK_WriteReg(R7, 0x00000000)  returns 0x00 (0000ms, 0768ms total)
T1418 001:350 JLINK_WriteReg(R8, 0x00000000)  returns 0x00 (0000ms, 0768ms total)
T1418 001:350 JLINK_WriteReg(R9, 0x20000160)  returns 0x00 (0000ms, 0768ms total)
T1418 001:350 JLINK_WriteReg(R10, 0x00000000)  returns 0x00 (0000ms, 0768ms total)
T1418 001:350 JLINK_WriteReg(R11, 0x00000000)  returns 0x00 (0000ms, 0768ms total)
T1418 001:350 JLINK_WriteReg(R12, 0x00000000)  returns 0x00 (0000ms, 0768ms total)
T1418 001:350 JLINK_WriteReg(R13 (SP), 0x20000800)  returns 0x00 (0000ms, 0768ms total)
T1418 001:350 JLINK_WriteReg(R14, 0x20000001)  returns 0x00 (0000ms, 0768ms total)
T1418 001:350 JLINK_WriteReg(R15 (PC), 0x200000F4)  returns 0x00 (0000ms, 0768ms total)
T1418 001:350 JLINK_WriteReg(XPSR, 0x01000000)  returns 0x00 (0000ms, 0768ms total)
T1418 001:350 JLINK_WriteReg(MSP, 0x20000800)  returns 0x00 (0000ms, 0768ms total)
T1418 001:350 JLINK_WriteReg(PSP, 0x20000800)  returns 0x00 (0000ms, 0768ms total)
T1418 001:350 JLINK_WriteReg(CFBP, 0x00000000)  returns 0x00 (0000ms, 0768ms total)
T1418 001:350 JLINK_SetBPEx(Addr = 0x20000000, Type = 0xFFFFFFF2)  returns 0x0000000C (0000ms, 0768ms total)
T1418 001:350 JLINK_Go() (0002ms, 0770ms total)
T1418 001:352 JLINK_IsHalted()  returns FALSE (0001ms, 0771ms total)
T1418 001:355 JLINK_IsHalted()  returns FALSE (0000ms, 0770ms total)
T1418 001:357 JLINK_IsHalted()  returns FALSE (0000ms, 0770ms total)
T1418 001:359 JLINK_IsHalted()  returns FALSE (0000ms, 0770ms total)
T1418 001:361 JLINK_IsHalted()  returns FALSE (0000ms, 0770ms total)
T1418 001:363 JLINK_IsHalted()  returns FALSE (0000ms, 0770ms total)
T1418 001:365 JLINK_IsHalted()  returns FALSE (0000ms, 0770ms total)
T1418 001:367 JLINK_IsHalted()  returns FALSE (0000ms, 0770ms total)
T1418 001:369 JLINK_IsHalted()  returns FALSE (0000ms, 0770ms total)
T1418 001:371 JLINK_IsHalted()  returns FALSE (0000ms, 0770ms total)
T1418 001:373 JLINK_IsHalted()  returns FALSE (0000ms, 0770ms total)
T1418 001:375 JLINK_IsHalted()  returns FALSE (0000ms, 0770ms total)
T1418 001:377 JLINK_IsHalted()  returns FALSE (0000ms, 0770ms total)
T1418 001:379 JLINK_IsHalted()  returns FALSE (0000ms, 0770ms total)
T1418 001:381 JLINK_IsHalted()  returns FALSE (0000ms, 0770ms total)
T1418 001:383 JLINK_IsHalted() -- CPU_ReadMem(2 bytes @ 0x20000000)  returns TRUE (0004ms, 0774ms total)
T1418 001:387 JLINK_ReadReg(R15 (PC))  returns 0x20000000 (0000ms, 0770ms total)
T1418 001:387 JLINK_ClrBPEx(BPHandle = 0x0000000C)  returns 0x00 (0001ms, 0771ms total)
T1418 001:388 JLINK_ReadReg(R0)  returns 0x00000000 (0000ms, 0771ms total)
T1418 001:389 JLINK_WriteMem(0x20000164, 0x0400 Bytes, ...) -- Data:  0E D0 B6 4F B8 42 0B D0 B0 F1 80 4F 08 D0 B4 4F ... -- CPU_WriteMem(1024 bytes @ 0x20000164)  returns 0x400 (0011ms, 0782ms total)
T1418 001:400 JLINK_WriteReg(R0, 0x08002000)  returns 0x00 (0000ms, 0782ms total)
T1418 001:400 JLINK_WriteReg(R1, 0x00000400)  returns 0x00 (0000ms, 0782ms total)
T1418 001:400 JLINK_WriteReg(R2, 0x20000164)  returns 0x00 (0000ms, 0782ms total)
T1418 001:400 JLINK_WriteReg(R3, 0x00000000)  returns 0x00 (0000ms, 0782ms total)
T1418 001:400 JLINK_WriteReg(R4, 0x00000000)  returns 0x00 (0000ms, 0782ms total)
T1418 001:400 JLINK_WriteReg(R5, 0x00000000)  returns 0x00 (0000ms, 0782ms total)
T1418 001:400 JLINK_WriteReg(R6, 0x00000000)  returns 0x00 (0000ms, 0782ms total)
T1418 001:400 JLINK_WriteReg(R7, 0x00000000)  returns 0x00 (0000ms, 0782ms total)
T1418 001:400 JLINK_WriteReg(R8, 0x00000000)  returns 0x00 (0000ms, 0782ms total)
T1418 001:400 JLINK_WriteReg(R9, 0x20000160)  returns 0x00 (0000ms, 0782ms total)
T1418 001:400 JLINK_WriteReg(R10, 0x00000000)  returns 0x00 (0000ms, 0782ms total)
T1418 001:400 JLINK_WriteReg(R11, 0x00000000)  returns 0x00 (0000ms, 0782ms total)
T1418 001:400 JLINK_WriteReg(R12, 0x00000000)  returns 0x00 (0000ms, 0782ms total)
T1418 001:400 JLINK_WriteReg(R13 (SP), 0x20000800)  returns 0x00 (0000ms, 0782ms total)
T1418 001:400 JLINK_WriteReg(R14, 0x20000001)  returns 0x00 (0000ms, 0782ms total)
T1418 001:400 JLINK_WriteReg(R15 (PC), 0x200000F4)  returns 0x00 (0000ms, 0782ms total)
T1418 001:400 JLINK_WriteReg(XPSR, 0x01000000)  returns 0x00 (0000ms, 0782ms total)
T1418 001:400 JLINK_WriteReg(MSP, 0x20000800)  returns 0x00 (0000ms, 0782ms total)
T1418 001:400 JLINK_WriteReg(PSP, 0x20000800)  returns 0x00 (0000ms, 0782ms total)
T1418 001:400 JLINK_WriteReg(CFBP, 0x00000000)  returns 0x00 (0000ms, 0782ms total)
T1418 001:400 JLINK_SetBPEx(Addr = 0x20000000, Type = 0xFFFFFFF2)  returns 0x0000000D (0000ms, 0782ms total)
T1418 001:400 JLINK_Go() (0003ms, 0785ms total)
T1418 001:403 JLINK_IsHalted()  returns FALSE (0000ms, 0785ms total)
T1418 001:410 JLINK_IsHalted()  returns FALSE (0000ms, 0785ms total)
T1418 001:412 JLINK_IsHalted()  returns FALSE (0000ms, 0785ms total)
T1418 001:414 JLINK_IsHalted()  returns FALSE (0000ms, 0785ms total)
T1418 001:416 JLINK_IsHalted()  returns FALSE (0000ms, 0785ms total)
T1418 001:418 JLINK_IsHalted()  returns FALSE (0000ms, 0785ms total)
T1418 001:420 JLINK_IsHalted()  returns FALSE (0000ms, 0785ms total)
T1418 001:422 JLINK_IsHalted()  returns FALSE (0000ms, 0785ms total)
T1418 001:424 JLINK_IsHalted()  returns FALSE (0000ms, 0785ms total)
T1418 001:426 JLINK_IsHalted()  returns FALSE (0000ms, 0785ms total)
T1418 001:428 JLINK_IsHalted()  returns FALSE (0000ms, 0785ms total)
T1418 001:430 JLINK_IsHalted()  returns FALSE (0000ms, 0785ms total)
T1418 001:432 JLINK_IsHalted()  returns FALSE (0000ms, 0785ms total)
T1418 001:434 JLINK_IsHalted() -- CPU_ReadMem(2 bytes @ 0x20000000)  returns TRUE (0004ms, 0789ms total)
T1418 001:438 JLINK_ReadReg(R15 (PC))  returns 0x20000000 (0000ms, 0785ms total)
T1418 001:438 JLINK_ClrBPEx(BPHandle = 0x0000000D)  returns 0x00 (0000ms, 0785ms total)
T1418 001:438 JLINK_ReadReg(R0)  returns 0x00000000 (0000ms, 0785ms total)
T1418 001:439 JLINK_WriteMem(0x20000164, 0x0400 Bytes, ...) -- Data:  4F F6 F8 70 04 40 44 F0 07 04 4F F6 8F 70 04 40 ... -- CPU_WriteMem(1024 bytes @ 0x20000164)  returns 0x400 (0011ms, 0796ms total)
T1418 001:450 JLINK_WriteReg(R0, 0x08002400)  returns 0x00 (0000ms, 0796ms total)
T1418 001:450 JLINK_WriteReg(R1, 0x00000400)  returns 0x00 (0000ms, 0796ms total)
T1418 001:450 JLINK_WriteReg(R2, 0x20000164)  returns 0x00 (0000ms, 0796ms total)
T1418 001:450 JLINK_WriteReg(R3, 0x00000000)  returns 0x00 (0000ms, 0796ms total)
T1418 001:451 JLINK_WriteReg(R4, 0x00000000)  returns 0x00 (0000ms, 0797ms total)
T1418 001:451 JLINK_WriteReg(R5, 0x00000000)  returns 0x00 (0000ms, 0797ms total)
T1418 001:451 JLINK_WriteReg(R6, 0x00000000)  returns 0x00 (0000ms, 0797ms total)
T1418 001:451 JLINK_WriteReg(R7, 0x00000000)  returns 0x00 (0000ms, 0797ms total)
T1418 001:451 JLINK_WriteReg(R8, 0x00000000)  returns 0x00 (0000ms, 0797ms total)
T1418 001:451 JLINK_WriteReg(R9, 0x20000160)  returns 0x00 (0000ms, 0797ms total)
T1418 001:451 JLINK_WriteReg(R10, 0x00000000)  returns 0x00 (0000ms, 0797ms total)
T1418 001:451 JLINK_WriteReg(R11, 0x00000000)  returns 0x00 (0000ms, 0797ms total)
T1418 001:451 JLINK_WriteReg(R12, 0x00000000)  returns 0x00 (0000ms, 0797ms total)
T1418 001:451 JLINK_WriteReg(R13 (SP), 0x20000800)  returns 0x00 (0000ms, 0797ms total)
T1418 001:451 JLINK_WriteReg(R14, 0x20000001)  returns 0x00 (0000ms, 0797ms total)
T1418 001:451 JLINK_WriteReg(R15 (PC), 0x200000F4)  returns 0x00 (0000ms, 0797ms total)
T1418 001:451 JLINK_WriteReg(XPSR, 0x01000000)  returns 0x00 (0000ms, 0797ms total)
T1418 001:451 JLINK_WriteReg(MSP, 0x20000800)  returns 0x00 (0000ms, 0797ms total)
T1418 001:451 JLINK_WriteReg(PSP, 0x20000800)  returns 0x00 (0000ms, 0797ms total)
T1418 001:451 JLINK_WriteReg(CFBP, 0x00000000)  returns 0x00 (0000ms, 0797ms total)
T1418 001:451 JLINK_SetBPEx(Addr = 0x20000000, Type = 0xFFFFFFF2)  returns 0x0000000E (0000ms, 0797ms total)
T1418 001:451 JLINK_Go() (0002ms, 0799ms total)
T1418 001:453 JLINK_IsHalted()  returns FALSE (0001ms, 0800ms total)
T1418 001:456 JLINK_IsHalted()  returns FALSE (0000ms, 0799ms total)
T1418 001:458 JLINK_IsHalted()  returns FALSE (0000ms, 0799ms total)
T1418 001:460 JLINK_IsHalted()  returns FALSE (0000ms, 0799ms total)
T1418 001:463 JLINK_IsHalted()  returns FALSE (0000ms, 0799ms total)
T1418 001:465 JLINK_IsHalted()  returns FALSE (0000ms, 0799ms total)
T1418 001:467 JLINK_IsHalted()  returns FALSE (0000ms, 0799ms total)
T1418 001:469 JLINK_IsHalted()  returns FALSE (0000ms, 0799ms total)
T1418 001:471 JLINK_IsHalted()  returns FALSE (0000ms, 0799ms total)
T1418 001:473 JLINK_IsHalted()  returns FALSE (0000ms, 0799ms total)
T1418 001:475 JLINK_IsHalted()  returns FALSE (0000ms, 0799ms total)
T1418 001:477 JLINK_IsHalted()  returns FALSE (0000ms, 0799ms total)
T1418 001:479 JLINK_IsHalted()  returns FALSE (0000ms, 0799ms total)
T1418 001:481 JLINK_IsHalted()  returns FALSE (0000ms, 0799ms total)
T1418 001:483 JLINK_IsHalted()  returns FALSE (0000ms, 0799ms total)
T1418 001:485 JLINK_IsHalted() -- CPU_ReadMem(2 bytes @ 0x20000000)  returns TRUE (0004ms, 0803ms total)
T1418 001:489 JLINK_ReadReg(R15 (PC))  returns 0x20000000 (0000ms, 0799ms total)
T1418 001:489 JLINK_ClrBPEx(BPHandle = 0x0000000E)  returns 0x00 (0000ms, 0799ms total)
T1418 001:489 JLINK_ReadReg(R0)  returns 0x00000000 (0000ms, 0799ms total)
T1418 001:490 JLINK_WriteMem(0x20000164, 0x0400 Bytes, ...) -- Data:  70 47 02 89 4F F6 7F 73 1A 40 02 81 02 89 0A 43 ... -- CPU_WriteMem(1024 bytes @ 0x20000164)  returns 0x400 (0012ms, 0811ms total)
T1418 001:502 JLINK_WriteReg(R0, 0x08002800)  returns 0x00 (0000ms, 0811ms total)
T1418 001:502 JLINK_WriteReg(R1, 0x00000400)  returns 0x00 (0000ms, 0811ms total)
T1418 001:502 JLINK_WriteReg(R2, 0x20000164)  returns 0x00 (0000ms, 0811ms total)
T1418 001:502 JLINK_WriteReg(R3, 0x00000000)  returns 0x00 (0000ms, 0811ms total)
T1418 001:502 JLINK_WriteReg(R4, 0x00000000)  returns 0x00 (0000ms, 0811ms total)
T1418 001:502 JLINK_WriteReg(R5, 0x00000000)  returns 0x00 (0000ms, 0811ms total)
T1418 001:502 JLINK_WriteReg(R6, 0x00000000)  returns 0x00 (0000ms, 0811ms total)
T1418 001:502 JLINK_WriteReg(R7, 0x00000000)  returns 0x00 (0000ms, 0811ms total)
T1418 001:502 JLINK_WriteReg(R8, 0x00000000)  returns 0x00 (0000ms, 0811ms total)
